(1790272016.726065) vcan0 100#0BA9000000000000
(1790272016.726118) vcan0 200#3800000000000000
(1790272016.726125) vcan0 300#00E8000000000000
(1790272016.726135) vcan0 400#0000000000000000
(1790272016.726141) vcan0 500#2400000000000000
(1790272016.736281) vcan0 300#00EC000000000000
(1790272016.745752) vcan0 100#0BAE000000000000
(1790272016.745821) vcan0 300#00EF000000000000
(1790272016.757306) vcan0 300#00F3000000000000
(1790272016.767678) vcan0 100#0BB2000000000000
(1790272016.767759) vcan0 300#00F7000000000000
(1790272016.775690) vcan0 200#3800000000000000
(1790272016.775773) vcan0 300#00F9000000000000
(1790272016.786371) vcan0 100#0BB7000000000000
(1790272016.786459) vcan0 300#00FD000000000000
(1790272016.796768) vcan0 300#0100000000000000
(1790272016.805746) vcan0 100#0BBB000000000000
(1790272016.805824) vcan0 300#0103000000000000
(1790272016.816070) vcan0 300#0106000000000000
(1790272016.826659) vcan0 100#0BC0000000000000
(1790272016.826737) vcan0 200#3800000000000000
(1790272016.826748) vcan0 300#0109000000000000
(1790272016.835814) vcan0 300#010C000000000000
(1790272016.846107) vcan0 100#0BC4000000000000
(1790272016.846202) vcan0 300#010E000000000000
(1790272016.856761) vcan0 300#0111000000000000
(1790272016.865776) vcan0 100#0BC8000000000000
(1790272016.865881) vcan0 300#0113000000000000
(1790272016.876358) vcan0 200#3800000000000000
(1790272016.876454) vcan0 300#0116000000000000
(1790272016.885892) vcan0 100#0BCD000000000000
(1790272016.885984) vcan0 300#0118000000000000
(1790272016.896329) vcan0 300#011A000000000000
(1790272016.905877) vcan0 100#0BD1000000000000
(1790272016.905967) vcan0 300#011C000000000000
(1790272016.917359) vcan0 300#011E000000000000
(1790272016.927141) vcan0 100#0BD6000000000000
(1790272016.927217) vcan0 200#3800000000000000
(1790272016.927227) vcan0 300#0120000000000000
(1790272016.935756) vcan0 300#0121000000000000
(1790272016.946170) vcan0 100#0BDA000000000000
(1790272016.946251) vcan0 300#0123000000000000
(1790272016.955913) vcan0 300#0124000000000000
(1790272016.966276) vcan0 100#0BDE000000000000
(1790272016.966363) vcan0 300#0125000000000000
(1790272016.975940) vcan0 200#3800000000000000
(1790272016.976031) vcan0 300#0126000000000000
(1790272016.986460) vcan0 100#0BE3000000000000
(1790272016.986550) vcan0 300#0127000000000000
(1790272016.996308) vcan0 300#0128000000000000
(1790272017.005740) vcan0 100#0BE7000000000000
(1790272017.005827) vcan0 300#0129000000000000
(1790272017.016314) vcan0 300#012A000000000000
(1790272017.025723) vcan0 100#0BEB000000000000
(1790272017.025800) vcan0 200#3800000000000000
(1790272017.025810) vcan0 300#012A000000000000
(1790272017.036347) vcan0 300#012B000000000000
(1790272017.046906) vcan0 100#0BF0000000000000
(1790272017.046981) vcan0 300#012B000000000000
(1790272017.055921) vcan0 300#012B000000000000
(1790272017.067779) vcan0 100#0BF4000000000000
(1790272017.067851) vcan0 300#012B000000000000
(1790272017.075781) vcan0 200#3800000000000000
(1790272017.075870) vcan0 300#012B000000000000
(1790272017.087227) vcan0 100#0BF8000000000000
(1790272017.087674) vcan0 300#012B000000000000
(1790272017.096044) vcan0 300#012B000000000000
(1790272017.105777) vcan0 100#0BFC000000000000
(1790272017.105851) vcan0 300#012B000000000000
(1790272017.116874) vcan0 300#012A000000000000
(1790272017.126607) vcan0 100#0C00000000000000
(1790272017.126682) vcan0 200#3800000000000000
(1790272017.126692) vcan0 300#0129000000000000
(1790272017.135721) vcan0 300#0129000000000000
(1790272017.146697) vcan0 100#0C05000000000000
(1790272017.146792) vcan0 300#0128000000000000
(1790272017.155743) vcan0 300#0127000000000000
(1790272017.166731) vcan0 100#0C09000000000000
(1790272017.166813) vcan0 300#0126000000000000
(1790272017.176332) vcan0 200#3800000000000000
(1790272017.176417) vcan0 300#0125000000000000
(1790272017.186092) vcan0 100#0C0D000000000000
(1790272017.186187) vcan0 300#0123000000000000
(1790272017.195718) vcan0 300#0122000000000000
(1790272017.207361) vcan0 100#0C11000000000000
(1790272017.207559) vcan0 300#0120000000000000
(1790272017.215959) vcan0 300#011F000000000000
(1790272017.226374) vcan0 100#0C15000000000000
(1790272017.226451) vcan0 200#3800000000000000
(1790272017.226462) vcan0 300#011D000000000000
(1790272017.226475) vcan0 400#0400000000000000
(1790272017.237096) vcan0 300#011B000000000000
(1790272017.245943) vcan0 100#0C19000000000000
(1790272017.246026) vcan0 300#0119000000000000
(1790272017.255756) vcan0 300#0117000000000000
(1790272017.265717) vcan0 100#0C1D000000000000
(1790272017.265819) vcan0 300#0114000000000000
(1790272017.275785) vcan0 200#3700000000000000
(1790272017.275865) vcan0 300#0112000000000000
(1790272017.286463) vcan0 100#0C21000000000000
(1790272017.286551) vcan0 300#010F000000000000
(1790272017.295951) vcan0 300#010D000000000000
(1790272017.306564) vcan0 100#0C25000000000000
(1790272017.306655) vcan0 300#010A000000000000
(1790272017.317215) vcan0 300#0107000000000000
(1790272017.325929) vcan0 100#0C29000000000000
(1790272017.326017) vcan0 200#3700000000000000
(1790272017.326028) vcan0 300#0105000000000000
(1790272017.335691) vcan0 300#0102000000000000
(1790272017.346131) vcan0 100#0C2D000000000000
(1790272017.346262) vcan0 300#00FE000000000000
(1790272017.355843) vcan0 300#00FB000000000000
(1790272017.367287) vcan0 100#0C32000000000000
(1790272017.367615) vcan0 300#00F8000000000000
(1790272017.375767) vcan0 200#3700000000000000
(1790272017.375861) vcan0 300#00F5000000000000
(1790272017.386338) vcan0 100#0C35000000000000
(1790272017.386430) vcan0 300#00F1000000000000
(1790272017.395830) vcan0 300#00ED000000000000
(1790272017.406319) vcan0 100#0C39000000000000
(1790272017.406415) vcan0 300#00EA000000000000
(1790272017.416632) vcan0 300#00E6000000000000
(1790272017.425714) vcan0 100#0C3D000000000000
(1790272017.425795) vcan0 200#3700000000000000
(1790272017.425805) vcan0 300#00E2000000000000
(1790272017.436187) vcan0 300#00DE000000000000
(1790272017.446762) vcan0 100#0C41000000000000
(1790272017.446833) vcan0 300#00DA000000000000
(1790272017.455708) vcan0 300#00D6000000000000
(1790272017.467269) vcan0 100#0C45000000000000
(1790272017.467372) vcan0 300#00D1000000000000
(1790272017.476361) vcan0 200#3700000000000000
(1790272017.476381) vcan0 300#00CD000000000000
(1790272017.485995) vcan0 100#0C49000000000000
(1790272017.486111) vcan0 300#00C9000000000000
(1790272017.496099) vcan0 300#00C4000000000000
(1790272017.505814) vcan0 100#0C4D000000000000
(1790272017.505890) vcan0 300#00C0000000000000
(1790272017.516250) vcan0 300#00BB000000000000
(1790272017.526563) vcan0 100#0C51000000000000
(1790272017.526645) vcan0 200#3700000000000000
(1790272017.526655) vcan0 300#00B6000000000000
(1790272017.537354) vcan0 300#00B1000000000000
(1790272017.545737) vcan0 100#0C54000000000000
(1790272017.545822) vcan0 300#00AD000000000000
(1790272017.555744) vcan0 300#00A8000000000000
(1790272017.567091) vcan0 100#0C58000000000000
(1790272017.567205) vcan0 300#00A2000000000000
(1790272017.576582) vcan0 200#3700000000000000
(1790272017.576676) vcan0 300#009E000000000000
(1790272017.587495) vcan0 100#0C5C000000000000
(1790272017.587617) vcan0 300#0098000000000000
(1790272017.596619) vcan0 300#0093000000000000
(1790272017.605967) vcan0 100#0C60000000000000
(1790272017.606040) vcan0 300#008E000000000000
(1790272017.618338) vcan0 300#0088000000000000
(1790272017.626904) vcan0 100#0C64000000000000
(1790272017.626929) vcan0 200#3700000000000000
(1790272017.626939) vcan0 300#0083000000000000
(1790272017.637223) vcan0 300#007D000000000000
(1790272017.646282) vcan0 100#0C67000000000000
(1790272017.646805) vcan0 300#0079000000000000
(1790272017.656258) vcan0 300#0073000000000000
(1790272017.667374) vcan0 100#0C6B000000000000
(1790272017.667760) vcan0 300#006D000000000000
(1790272017.679414) vcan0 200#3700000000000000
(1790272017.679527) vcan0 300#0066000000000000
(1790272017.685812) vcan0 100#0C6F000000000000
(1790272017.685937) vcan0 300#0063000000000000
(1790272017.696021) vcan0 300#005D000000000000
(1790272017.710888) vcan0 100#0C73000000000000
(1790272017.711032) vcan0 300#0054000000000000
(1790272017.718727) vcan0 300#0050000000000000
(1790272017.726241) vcan0 100#0C76000000000000
(1790272017.726305) vcan0 200#3700000000000000
(1790272017.726334) vcan0 300#004B000000000000
(1790272017.726371) vcan0 400#0000000000000000
(1790272017.726395) vcan0 500#2500000000000000
(1790272017.726420) vcan0 7DF#02010D0000000000
(1790272017.748239) vcan0 100#0C7A000000000000
(1790272017.748375) vcan0 300#003E000000000000
(1790272017.749991) vcan0 300#003D000000000000
(1790272017.757606) vcan0 300#0039000000000000
(1790272017.768041) vcan0 100#0C7E000000000000
(1790272017.768160) vcan0 300#0033000000000000
(1790272017.776606) vcan0 200#3700000000000000
(1790272017.776712) vcan0 300#002E000000000000
(1790272017.786444) vcan0 100#0C81000000000000
(1790272017.786557) vcan0 300#0028000000000000
(1790272017.804386) vcan0 300#001D000000000000
(1790272017.806142) vcan0 100#0C85000000000000
(1790272017.806195) vcan0 300#001C000000000000
(1790272017.821935) vcan0 300#0013000000000000
(1790272017.827839) vcan0 100#0C88000000000000
(1790272017.827985) vcan0 200#3700000000000000
(1790272017.828038) vcan0 300#000F000000000000
(1790272017.837763) vcan0 300#0009000000000000
(1790272017.847226) vcan0 100#0C8C000000000000
(1790272017.847275) vcan0 300#0004000000000000
(1790272017.862972) vcan0 300#FFFB000000000000
